/Q2 (VDDL=0.4) X,/Q2 (VDDL=0.4) Y,/Q2 (VDDL=0.425) X,/Q2 (VDDL=0.425) Y,/Q2 (VDDL=0.45) X,/Q2 (VDDL=0.45) Y,/Q2 (VDDL=0.475) X,/Q2 (VDDL=0.475) Y,/Q2 (VDDL=0.5) X,/Q2 (VDDL=0.5) Y,/Q2 (VDDL=0.525) X,/Q2 (VDDL=0.525) Y,/Q2 (VDDL=0.55) X,/Q2 (VDDL=0.55) Y,/Q2 (VDDL=0.575) X,/Q2 (VDDL=0.575) Y,/Q2 (VDDL=0.6) X,/Q2 (VDDL=0.6) Y,/Q2 (VDDL=0.625) X,/Q2 (VDDL=0.625) Y,/Q2 (VDDL=0.65) X,/Q2 (VDDL=0.65) Y,/Q2 (VDDL=0.675) X,/Q2 (VDDL=0.675) Y,/Q2 (VDDL=0.7) X,/Q2 (VDDL=0.7) Y,/Q2 (VDDL=0.725) X,/Q2 (VDDL=0.725) Y,/Q2 (VDDL=0.75) X,/Q2 (VDDL=0.75) Y,/Q2 (VDDL=0.775) X,/Q2 (VDDL=0.775) Y,/Q2 (VDDL=0.8) X,/Q2 (VDDL=0.8) Y,/Q2 (VDDL=0.825) X,/Q2 (VDDL=0.825) Y,/Q2 (VDDL=0.85) X,/Q2 (VDDL=0.85) Y,/Q2 (VDDL=0.875) X,/Q2 (VDDL=0.875) Y,/Q2 (VDDL=0.9) X,/Q2 (VDDL=0.9) Y
0,0.8681954225629664,0,0.8581589850071226,0,0.8461969499853793,0,0.8321156774435464,0,0.815667994950821,0,0.79652190049787,0,0.7742114808933364,0,0.7483323675392543,0,0.7168993677920646,0,0.6783542285592415,0,0.6291023850274766,0,0.5667331169391204,0,0.4953867674816481,0,0.4228182761762891,0,0.3565686074052326,0,0.3030588550096219,0,0.2642256262575871,0,0.236540172584914,0,0.2159010287942355,0,0.1997967372340426,0,0.1868087854337117
0.018,0.8668588001736026,0.018,0.8563360133593255,0.018,0.8437466329207727,0.018,0.8288544859285785,0.018,0.8113499444151785,0.018,0.7908051159225926,0.018,0.7665930711997767,0.018,0.7377238999496116,0.018,0.7024737946624313,0.018,0.6577021808827523,0.018,0.5996431235311487,0.018,0.5296510572317333,0.018,0.4549291633801834,0.018,0.3832302085127184,0.018,0.3217445498243477,0.018,0.2752798523636836,0.018,0.2425009511263085,0.018,0.2187880915708764,0.018,0.2007386377818622,0.018,0.1864423997120824,0.018,0.1747941737408639
0.036,0.8653363511178991,0.036,0.8542523555201169,0.036,0.8409323447887018,0.036,0.8250844054881911,0.036,0.806314340282697,0.036,0.7840590134191863,0.036,0.7574589262434255,0.036,0.7250839898689934,0.036,0.6843376136978457,0.036,0.6311193029428747,0.036,0.5639498496866759,0.036,0.4885652946823017,0.036,0.4129064957124704,0.036,0.3443679037641668,0.036,0.2895302638338483,0.036,0.2502984271288238,0.036,0.2226637888064938,0.036,0.2022257065134958,0.036,0.1863786816634204,0.036,0.1736677928587222,0.036,0.1632199283124358
0.05400000000000001,0.8635899283298618,0.05400000000000001,0.8518525277873233,0.05400000000000001,0.8376723973621905,0.05400000000000001,0.8206827728186499,0.05400000000000001,0.800371480059636,0.05400000000000001,0.7759775001154673,0.05400000000000001,0.7462807452515873,0.05400000000000001,0.7091372866278715,0.05400000000000001,0.6607622640084395,0.05400000000000001,0.5976297250595838,0.05400000000000001,0.5230253133954336,0.05400000000000001,0.4448528226848913,0.05400000000000001,0.3706182476394849,0.05400000000000001,0.3075266245459889,0.05400000000000001,0.2605156864537126,0.05400000000000001,0.2278319785234839,0.05400000000000001,0.2044059456635547,0.05400000000000001,0.186693168811512,0.05400000000000001,0.1727432520612184,0.05400000000000001,0.161433905515995,0.05400000000000001,0.1520666247666397
0.07200000000000001,0.8615698191318552,0.07200000000000001,0.8490635972352554,0.07200000000000001,0.8338577489379604,0.07200000000000001,0.8154820267075302,0.07200000000000001,0.7932536451936486,0.07200000000000001,0.7661091300999018,0.07200000000000001,0.732244562933228,0.07200000000000001,0.6883990348017192,0.07200000000000001,0.6301013903200678,0.07200000000000001,0.5576645826511438,0.07200000000000001,0.4783378000347047,0.07200000000000001,0.3998626584656029,0.07200000000000001,0.3294427506950695,0.07200000000000001,0.2738274083165372,0.07200000000000001,0.2347114442542366,0.07200000000000001,0.2074798335369799,0.07200000000000001,0.1874841892289818,0.07200000000000001,0.1720711645705024,0.07200000000000001,0.159772540939402,0.07200000000000001,0.1497099901690497,0.07200000000000001,0.141318899379139
0.09000000000000001,0.8592098776193925,0.09000000000000001,0.845787538122409,0.09000000000000001,0.8293391093593483,0.09000000000000001,0.8092461727618615,0.09000000000000001,0.7845683287286916,0.09000000000000001,0.7537567888580651,0.09000000000000001,0.714045746309399,0.09000000000000001,0.6608882346256708,0.09000000000000001,0.59188497758864,0.09000000000000001,0.5126909944598594,0.09000000000000001,0.4313513879974263,0.09000000000000001,0.354970944618288,0.09000000000000001,0.2908122073011011,0.09000000000000001,0.2438596660401946,0.09000000000000001,0.2117225757431178,0.09000000000000001,0.1888816283111969,0.09000000000000001,0.1717158494053321,0.09000000000000001,0.1582689846232063,0.09000000000000001,0.1474195654529059,0.09000000000000001,0.138471454482308,0.09000000000000001,0.1309645939416496
0.108,0.8564199322416601,0.108,0.8418890541967078,0.108,0.8239056365949615,0.108,0.8016298700950536,0.108,0.7737120790958123,0.108,0.7377912193885288,0.108,0.6896830146725528,0.108,0.6251319404639394,0.108,0.5473033345035087,0.108,0.4643506870868276,0.108,0.3834608184928459,0.108,0.3116766309159358,0.108,0.2559418196055867,0.108,0.2175139132986512,0.108,0.1910599441596674,0.108,0.1717600695515183,0.108,0.1569643400645603,0.108,0.1452163934555065,0.108,0.1356468992951232,0.108,0.1276985552129707,0.108,0.1209942199982468
0.126,0.853073592764039,0.126,0.8371754469846112,0.126,0.8172480646706556,0.126,0.7921032443630459,0.126,0.7597047528593631,0.126,0.716354569143029,0.126,0.6569080328597316,0.126,0.5816124233021273,0.126,0.4981869636367507,0.126,0.4141332240326621,0.126,0.3361200740141749,0.126,0.2715624503812158,0.126,0.2253665101231005,0.126,0.194257035423288,0.126,0.172311760971371,0.126,0.1559099280719837,0.126,0.1431257666046581,0.126,0.1328579998277904,0.126,0.1244244305990544,0.126,0.1173754684509226,0.126,0.1114005595117512
0.144,0.848987930835724,0.144,0.8313616992406894,0.144,0.8088909255834831,0.144,0.779804714618633,0.144,0.7408775621150434,0.144,0.6867997821602333,0.144,0.6150881911084111,0.144,0.5322415291456633,0.144,0.4462143990682904,0.144,0.3634591133100811,0.144,0.2909721414820878,0.144,0.2359136029344707,0.144,0.1987999434865386,0.144,0.1735136360357702,0.144,0.1551702644388833,0.144,0.14117800938056,0.144,0.1301193657737047,0.144,0.121149453426862,0.144,0.1137277911299687,0.144,0.1074896016417325,0.144,0.1021783501992009
0.162,0.8438880534256856,0.162,0.8240061963646427,0.162,0.7980587463928338,0.162,0.7632410743862604,0.162,0.7144937684369147,0.162,0.6472223179151158,0.162,0.5659258299377672,0.162,0.4789734653087867,0.162,0.3928465484220678,0.162,0.3138783941331623,0.162,0.249768520033226,0.162,0.205132532262632,0.162,0.1755567082290263,0.162,0.1548269452704519,0.162,0.1394092605255411,0.162,0.1274473235640507,0.162,0.117881103880017,0.162,0.1100548330308816,0.162,0.1035372130036597,0.162,0.09803105815001321,0.162,0.09332402091500769
0.18,0.8373416436027387,0.18,0.8143831525976873,0.18,0.7833920046252603,0.18,0.7397506922023327,0.18,0.6775161065983888,0.18,0.5986480990672963,0.18,0.5117019663224136,0.18,0.4234063177996391,0.18,0.3395343383415256,0.18,0.2672205379523726,0.18,0.213816743082502,0.18,0.17869821359557,0.18,0.1549835776933152,0.18,0.1378620727966498,0.18,0.1248593906522742,0.18,0.1146263932947435,0.18,0.1063593745027731,0.18,0.09954479017344595,0.18,0.09383666074584178,0.18,0.08899220179333105,0.18,0.08483545979494345
0.1980000000000001,0.828628241056905,0.1980000000000001,0.8012053561100858,0.1980000000000001,0.7623416424094988,0.1980000000000001,0.7054538490815327,0.1980000000000001,0.6297689312966721,0.1980000000000001,0.5436622086488536,0.1980000000000001,0.4542556756304886,0.1980000000000001,0.3669560380983472,0.1980000000000001,0.287969806878092,0.1980000000000001,0.2254408987427393,0.1980000000000001,0.1832806074838595,0.1980000000000001,0.1557715644081303,0.1980000000000001,0.1365854196349449,0.1980000000000001,0.1223729943497258,0.1980000000000001,0.1113905237993344,0.1980000000000001,0.1026422056476522,0.1980000000000001,0.09551203051532813,0.1980000000000001,0.08959519054193388,0.1980000000000001,0.08461316117859999,0.1980000000000001,0.08036730575916504,0.1980000000000001,0.07671182155816551
0.2160000000000001,0.8164497377210767,0.2160000000000001,0.7819749454319148,0.2160000000000001,0.73044668318054,0.2160000000000001,0.6585332020927565,0.2160000000000001,0.5740090542909296,0.2160000000000001,0.4844516060092183,0.2160000000000001,0.3950528554808311,0.2160000000000001,0.3111450855918982,0.2160000000000001,0.2402486546934319,0.2160000000000001,0.1897593251852106,0.2160000000000001,0.1573553758780974,0.2160000000000001,0.1356332135664702,0.2160000000000001,0.1200028018743994,0.2160000000000001,0.1081745088023265,0.2160000000000001,0.09890025836562084,0.2160000000000001,0.09143551540443016,0.2160000000000001,0.08530431651069807,0.2160000000000001,0.08018614174454688,0.2160000000000001,0.07585632716354561,0.2160000000000001,0.07215231754419604,0.2160000000000001,0.06895341665054396
0.2340000000000001,0.7982088715121674,0.2340000000000001,0.7517405418919024,0.2340000000000001,0.6839554180680965,0.2340000000000001,0.6016739850320966,0.2340000000000001,0.5128861594271897,0.2340000000000001,0.4226200452930407,0.2340000000000001,0.3355012405129043,0.2340000000000001,0.2579011643848856,0.2340000000000001,0.1985109650414242,0.2340000000000001,0.1599322342781842,0.2340000000000001,0.1350594035164195,0.2340000000000001,0.1177555413086633,0.2340000000000001,0.1049710980374961,0.2340000000000001,0.09512361011417467,0.2340000000000001,0.08730654044830766,0.2340000000000001,0.08095777599757439,0.2340000000000001,0.0757075434400537,0.2340000000000001,0.07130143238277163,0.2340000000000001,0.06755815532953728,0.2340000000000001,0.0643448331974396,0.2340000000000001,0.06156177468430164
0.2520000000000001,0.7682661464691347,0.2520000000000001,0.7046219582734918,0.2520000000000001,0.6251893783778129,0.2520000000000001,0.5381328258964448,0.2520000000000001,0.4482313054888104,0.2520000000000001,0.3595377087644613,0.2520000000000001,0.2772987239495444,0.2520000000000001,0.2097084626770608,0.2520000000000001,0.1637473108494595,0.2520000000000001,0.1349055051856435,0.2520000000000001,0.115620341368743,0.2520000000000001,0.1017579946965633,0.2520000000000001,0.09129083815756699,0.2520000000000001,0.08310794384704921,0.2520000000000001,0.076543215045274,0.2520000000000001,0.07116946626162299,0.2520000000000001,0.06669857782091558,0.2520000000000001,0.06292853521453833,0.2520000000000001,0.05971326168679918,0.2520000000000001,0.05694443570425303,0.2520000000000001,0.05454002346212714
0.2700000000000001,0.7183495286624006,0.2700000000000001,0.6424278755211694,0.2700000000000001,0.5582365865595663,0.2700000000000001,0.470065157554369,0.2700000000000001,0.3814546673337827,0.2700000000000001,0.2967257483387115,0.2700000000000001,0.222809347010983,0.2700000000000001,0.1688660009285172,0.2700000000000001,0.1351717791554507,0.2700000000000001,0.1135511771811161,0.2700000000000001,0.0984868806545857,0.2700000000000001,0.08736211018259053,0.2700000000000001,0.07880976133965949,0.2700000000000001,0.07203950369354079,0.2700000000000001,0.06655812174108459,0.2700000000000001,0.06203991118752954,0.2700000000000001,0.05826035463369404,0.2700000000000001,0.0550593873820132,0.2700000000000001,0.05231974693820447,0.2700000000000001,0.04995356613859205,0.2700000000000001,0.0478937324268539
0.2880000000000001,0.6502397438491614,0.2880000000000001,0.5704528625863666,0.2880000000000001,0.4856877203360654,0.2880000000000001,0.3989985644323997,0.2880000000000001,0.3139918066993647,0.2880000000000001,0.2363009741406336,0.2880000000000001,0.1751030537347829,0.2880000000000001,0.1358020974459337,0.2880000000000001,0.1114358201763161,0.2880000000000001,0.09506632818564299,0.2880000000000001,0.08326955080278671,0.2880000000000001,0.07436390653395186,0.2880000000000001,0.06741402102681232,0.2880000000000001,0.06185271654843263,0.2880000000000001,0.05731363630860344,0.2880000000000001,0.05354866888848238,0.2880000000000001,0.05038350308132656,0.2880000000000001,0.04769202433789809,0.2880000000000001,0.0453807545676943,0.2880000000000001,0.04337898038268394,0.2880000000000001,0.04163226572850262
0.3060000000000002,0.5709857919565836,0.3060000000000002,0.4918325611191762,0.3060000000000002,0.4092709129763696,0.3060000000000002,0.3263864203244714,0.3060000000000002,0.2477856756463556,0.3060000000000002,0.1815014091067931,0.3060000000000002,0.1364004790652403,0.3060000000000002,0.1090432045655032,0.3060000000000002,0.09133694669406167,0.3060000000000002,0.07890539640310702,0.3060000000000002,0.06969914700931817,0.3060000000000002,0.06262133990022115,0.3060000000000002,0.05702613707984287,0.3060000000000002,0.05250573536483743,0.3060000000000002,0.04878890938866639,0.3060000000000002,0.04568792122369861,0.3060000000000002,0.04306863383613665,0.3060000000000002,0.04083269264598791,0.3060000000000002,0.03890640129854796,0.3060000000000002,0.03723351008520975,0.3060000000000002,0.03577039211010106
0.3240000000000002,0.4842750238622843,0.3240000000000002,0.4085816366124632,0.3240000000000002,0.3305763526143575,0.3240000000000002,0.2541490845771714,0.3240000000000002,0.1860051342347943,0.3240000000000002,0.1362078946393228,0.3240000000000002,0.1059965066184539,0.3240000000000002,0.08704027831619812,0.3240000000000002,0.0741115695311079,0.3240000000000002,0.06472003376191932,0.3240000000000002,0.05760628816908033,0.3240000000000002,0.05204962481018684,0.3240000000000002,0.04760506692285341,0.3240000000000002,0.04398186523246883,0.3240000000000002,0.0409816152605904,0.3240000000000002,0.0384642184122848,0.3240000000000002,0.03632797431505209,0.3240000000000002,0.03449734658473771,0.3240000000000002,0.03291513374304163,0.3240000000000002,0.03153728864526921,0.3240000000000002,0.03032939303062039
0.3420000000000002,0.3925002274760679,0.3420000000000002,0.3225868125054141,0.3420000000000002,0.251712411810927,0.3420000000000002,0.1855170600992407,0.3420000000000002,0.1337130437474869,0.3420000000000002,0.1015130152698497,0.3420000000000002,0.08179657110541697,0.3420000000000002,0.06868176831889168,0.3420000000000002,0.05931725143794177,0.3420000000000002,0.05231575308811376,0.3420000000000002,0.04690368994725086,0.3420000000000002,0.04261277182003452,0.3420000000000002,0.03914157508408312,0.3420000000000002,0.03628677636658797,0.3420000000000002,0.03390613122371196,0.3420000000000002,0.03189718764448322,0.3420000000000002,0.03018437504492657,0.3420000000000002,0.02871082566132929,0.3420000000000002,0.02743300619438347,0.3420000000000002,0.02631708879915483,0.3420000000000002,0.02533643648938428
0.3600000000000002,0.2980862942792786,0.3600000000000002,0.2364580894030867,0.3600000000000002,0.1763596622700105,0.3600000000000002,0.1266198328439323,0.3600000000000002,0.09459593456281995,0.3600000000000002,0.07518426223813622,0.3600000000000002,0.06240035624634246,0.3600000000000002,0.05340017774765509,0.3600000000000002,0.0467228872032692,0.3600000000000002,0.04159559241185953,0.3600000000000002,0.03755485554477039,0.3600000000000002,0.03430440861616856,0.3600000000000002,0.03164537632320981,0.3600000000000002,0.02943916032556426,0.3600000000000002,0.02758627641462203,0.3600000000000002,0.02601358806346523,0.3600000000000002,0.02466624697597097,0.3600000000000002,0.0235024145563618,0.3600000000000002,0.02248969925406401,0.3600000000000002,0.02160269133552023,0.3600000000000002,0.02082122080378799
0.3780000000000002,0.204759141652706,0.3780000000000002,0.1551317288779541,0.3780000000000002,0.1125096826775034,0.3780000000000002,0.08421712218073177,0.3780000000000002,0.06675789217850167,0.3780000000000002,0.05513922022732711,0.3780000000000002,0.04694934669325376,0.3780000000000002,0.04085582778528182,0.3780000000000002,0.03617501871432467,0.3780000000000002,0.03249043855752549,0.3780000000000002,0.02953291190479019,0.3780000000000002,0.02712030503098913,0.3780000000000002,0.02512495401275095,0.3780000000000002,0.02345486081353114,0.3780000000000002,0.02204222885455031,0.3780000000000002,0.02083615721515747,0.3780000000000002,0.01979781599253658,0.3780000000000002,0.01889716689992477,0.3780000000000002,0.01811068082932744,0.3780000000000002,0.01741971759868019,0.3780000000000002,0.01680935622576487
0.3960000000000002,0.1209163095059592,0.3960000000000002,0.09099236905561686,0.3960000000000002,0.07033545891319329,0.3960000000000002,0.05663363972510927,0.3960000000000002,0.04708129871840072,0.3960000000000002,0.0400835176678653,0.3960000000000002,0.03482688776411302,0.3960000000000002,0.0307462197206305,0.3960000000000002,0.02751554904140179,0.3960000000000002,0.02491527815959766,0.3960000000000002,0.0227925260650111,0.3960000000000002,0.02103792169595657,0.3960000000000002,0.01957146879641143,0.3960000000000002,0.01833357760687098,0.3960000000000002,0.01727916719403729,0.3960000000000002,0.01637366998500091,0.3960000000000002,0.0155902586451523,0.3960000000000002,0.01490788294503851,0.3960000000000002,0.01430985705287886,0.3960000000000002,0.01378282862773206,0.3960000000000002,0.0133160172740351
0.4140000000000003,0.06687538474696005,0.4140000000000003,0.05485062727536093,0.4140000000000003,0.04562250014772661,0.4140000000000003,0.03855945943479063,0.4140000000000003,0.03307586009504734,0.4140000000000003,0.02882928847885482,0.4140000000000003,0.02545783225582163,0.4140000000000003,0.02275073643086873,0.4140000000000003,0.02055263692770846,0.4140000000000003,0.01874880715657472,0.4140000000000003,0.01725369196689658,0.4140000000000003,0.01600279608541504,0.4140000000000003,0.01494699504044438,0.4140000000000003,0.01404850995157389,0.4140000000000003,0.01327802309041478,0.4140000000000003,0.01261258546830383,0.4140000000000003,0.01203408273743708,0.4140000000000003,0.01152810008905362,0.4140000000000003,0.01108307554201669,0.4140000000000003,0.01068966361996438,0.4140000000000003,0.01034025372536912
0.4320000000000003,0.04039857923666151,0.4320000000000003,0.03493025120796123,0.4320000000000003,0.03023894837029492,0.4320000000000003,0.02633185197322513,0.4320000000000003,0.02310474464640839,0.4320000000000003,0.02047962755238564,0.4320000000000003,0.01832276240585237,0.4320000000000003,0.01654396697599265,0.4320000000000003,0.01506897960094761,0.4320000000000003,0.01383818367295213,0.4320000000000003,0.01280421959251893,0.4320000000000003,0.01192960499179269,0.4320000000000003,0.01118468296194798,0.4320000000000003,0.01054594679080554,0.4320000000000003,0.009994705874381947,0.4320000000000003,0.0095160372288574,0.4320000000000003,0.009097967621003412,0.4320000000000003,0.008730838243037666,0.4320000000000003,0.008406812091982874,0.4320000000000003,0.008119492013724371,0.4320000000000003,0.007863624139817066
0.4500000000000003,0.02553670605173712,0.4500000000000003,0.02271444851168012,0.4500000000000003,0.02014925417507401,0.4500000000000003,0.017890071548938,0.4500000000000003,0.01597165791232683,0.4500000000000003,0.01434449722738422,0.4500000000000003,0.01297183486978359,0.4500000000000003,0.01181522167412393,0.4500000000000003,0.01083923872466106,0.4500000000000003,0.01001309234467719,0.4500000000000003,0.009310820827250066,0.4500000000000003,0.008710917371293481,0.4500000000000003,0.008195746176837168,0.4500000000000003,0.007750925467760906,0.4500000000000003,0.00736475440988168,0.4500000000000003,0.007027713594597027,0.4500000000000003,0.006732045416534528,0.4500000000000003,0.006471409596406612,0.4500000000000003,0.006240604510924052,0.4500000000000003,0.006035343803882698,0.4500000000000003,0.005852078244296724
