/QB (modelFiles=hlmc_55lp_v1p9_spe.lib:tt) X,/QB (modelFiles=hlmc_55lp_v1p9_spe.lib:tt) Y,/QB (modelFiles=hlmc_55lp_v1p9_spe.lib:ss) X,/QB (modelFiles=hlmc_55lp_v1p9_spe.lib:ss) Y,/QB (modelFiles=hlmc_55lp_v1p9_spe.lib:sf) X,/QB (modelFiles=hlmc_55lp_v1p9_spe.lib:sf) Y,/QB (modelFiles=hlmc_55lp_v1p9_spe.lib:fs) X,/QB (modelFiles=hlmc_55lp_v1p9_spe.lib:fs) Y,/QB (modelFiles=hlmc_55lp_v1p9_spe.lib:ff) X,/QB (modelFiles=hlmc_55lp_v1p9_spe.lib:ff) Y
0,1.199997986836104,0,1.199999778115807,0,1.199999750287615,0,1.19998479604896,0,1.199981496578449
0.024,1.199996029617762,0.024,1.199999653038073,0.024,1.199999580277942,0.024,1.199967550247664,0.024,1.19996092913996
0.048,1.199992087693243,0.048,1.199999398211788,0.048,1.199999237405051,0.048,1.199931025770299,0.048,1.199918203544101
0.07200000000000001,1.199984179886181,0.07200000000000001,1.199998876132156,0.07200000000000001,1.199998546089442,0.07200000000000001,1.199854539327554,0.07200000000000001,1.199830921106198
0.096,1.199968408129945,0.096,1.199997803363168,0.096,1.199997154270247,0.096,1.199696749559971,0.096,1.199656266940955
0.12,1.19993720662203,0.12,1.199995596273706,0.12,1.199994359619275,0.12,1.199377330153071,0.12,1.199315133843624
0.144,1.199876148632876,0.144,1.199991055826722,0.144,1.199988771361252,0.144,1.198745176925368,0.144,1.198666772018996
0.168,1.199758312472393,0.168,1.199981728218211,0.168,1.19997766353672,0.168,1.197526340844784,0.168,1.197472582046409
0.192,1.199534664816064,0.192,1.199962622217815,0.192,1.199955766626614,0.192,1.195246659415761,0.192,1.195355883929581
0.216,1.199118132347818,0.216,1.199923675401317,0.216,1.199913074730427,0.216,1.191135148950322,0.216,1.191778612887115
0.24,1.198358125711012,0.24,1.199844849314033,0.24,1.19983099629636,0.24,1.184029639811536,0.24,1.186058450231787
0.264,1.197002287067541,0.264,1.199686860326162,0.264,1.199675815477877,0.264,1.172292837528037,0.264,1.17742317759982
0.288,1.194645046993586,0.288,1.199374089492267,0.288,1.199387904485503,0.288,1.153667068936843,0.288,1.165060169172533
0.312,1.190667415913659,0.312,1.19876373295466,0.312,1.198864515388082,0.312,1.124820998627975,0.312,1.148103931795969
0.336,1.184171515757148,0.336,1.197591093784937,0.336,1.19793400668986,0.336,1.079851868827473,0.336,1.125514835771751
0.36,1.173894668975983,0.36,1.195374504354486,0.36,1.196321433283783,0.36,1.003811367450571,0.36,1.09577017084058
0.3840000000000001,1.158038432006441,0.3840000000000001,1.19125295457691,0.3840000000000001,1.193609354112577,0.3840000000000001,0.8487665680823275,0.3840000000000001,1.056334583779141
0.4080000000000001,1.133828628077207,0.4080000000000001,1.183700504535265,0.4080000000000001,1.189198877636723,0.4080000000000001,0.5947277440678871,0.4080000000000001,1.002083345476737
0.4320000000000001,1.096095189267763,0.4320000000000001,1.169943466538159,0.4320000000000001,1.182267583790115,0.4320000000000001,0.3278745049075413,0.4320000000000001,0.9210574445890503
0.4560000000000001,1.032701716869465,0.4560000000000001,1.144228106041595,0.4560000000000001,1.171698441348027,0.4560000000000001,0.1497539996850496,0.4560000000000001,0.787086231080008
0.4800000000000001,0.9029074112955822,0.4800000000000001,1.090768629497908,0.4800000000000001,1.15590905848915,0.4800000000000001,0.08524785067186207,0.4800000000000001,0.5924759752060382
0.5040000000000001,0.6676277866799722,0.5040000000000001,0.9285004212431939,0.5040000000000001,1.132357229798724,0.5040000000000001,0.05601021038468211,0.5040000000000001,0.3802604355302479
0.5280000000000001,0.3948158684524939,0.5280000000000001,0.6130877201912407,0.5280000000000001,1.096304718128026,0.5280000000000001,0.03883127876276189,0.5280000000000001,0.2260815433029838
0.5520000000000002,0.1822192481817482,0.5520000000000002,0.2809986995014811,0.5520000000000002,1.035629547364438,0.5520000000000002,0.02743940856400734,0.5520000000000002,0.1531386503677214
0.5760000000000002,0.1015538329381245,0.5760000000000002,0.09392327403084251,0.5760000000000002,0.9095821329077066,0.5760000000000002,0.0194486699967739,0.5760000000000002,0.1144561702643423
0.6000000000000002,0.06671459108568421,0.6000000000000002,0.04588570515891036,0.6000000000000002,0.6817414438937932,0.6000000000000002,0.01364918238204157,0.6000000000000002,0.08945299317126211
0.6240000000000002,0.04644655327734495,0.6240000000000002,0.02554336275787628,0.6240000000000002,0.4151626584802041,0.6240000000000002,0.009393258027811829,0.6240000000000002,0.07138308906823394
0.6480000000000002,0.03297446975649686,0.6480000000000002,0.01461945527283021,0.6480000000000002,0.2032502791082118,0.6480000000000002,0.006281873187301191,0.6480000000000002,0.05745780208734848
0.6720000000000003,0.02347128772085532,0.6720000000000003,0.008293058897282143,0.6720000000000003,0.1173296959829424,0.6720000000000003,0.004048075303038333,0.6720000000000003,0.04631940171972158
0.6960000000000003,0.01652770230058642,0.6960000000000003,0.004575290750833276,0.6960000000000003,0.0787182713391987,0.6960000000000003,0.002496508007675963,0.6960000000000003,0.03718568390183617
0.7200000000000003,0.01139894301756875,0.7200000000000003,0.002440232308553379,0.7200000000000003,0.0557165026115474,0.7200000000000003,0.001469205394252115,0.7200000000000003,0.02959213028572735
0.7440000000000003,0.007628205610315354,0.7440000000000003,0.001258888005228788,0.7440000000000003,0.04011693125659284,0.7440000000000003,0.0008280303493554274,0.7440000000000003,0.02323884840064793
0.7680000000000003,0.004909875564884481,0.7680000000000003,0.0006332494060284869,0.7680000000000003,0.02890530875368778,0.7680000000000003,0.000451717500449303,0.7680000000000003,0.0179231090996632
0.7920000000000004,0.003018195736793074,0.7920000000000004,0.0003135642873264261,0.7920000000000004,0.02057065583655052,0.7920000000000004,0.0002423016170674128,0.7920000000000004,0.0135023219080269
0.8160000000000004,0.001766580086524664,0.8160000000000004,0.0001539868010515441,0.8160000000000004,0.01431287789503757,0.8160000000000004,0.0001301779713242998,0.8160000000000004,0.0098721858444241
0.8400000000000004,0.0009876289001246972,0.8400000000000004,7.535764412028497e-05,0.8400000000000004,0.00964102070099963,0.8400000000000004,7.159198631103886e-05,0.8400000000000004,0.006952553021952553
0.8640000000000004,0.000532181663192605,0.8640000000000004,3.686197636307771e-05,0.8640000000000004,0.006226281293189196,0.8640000000000004,4.139664284333602e-05,0.8640000000000004,0.004676622374707803
0.8880000000000005,0.0002796361117855138,0.8880000000000005,1.806665147351217e-05,0.8880000000000005,0.003823374068946922,0.8880000000000005,2.592684741426509e-05,0.8880000000000005,0.002980359728892992
0.9120000000000005,0.0001448507339792003,0.9120000000000005,8.897010160036417e-06,0.9120000000000005,0.002223026259084071,0.9120000000000005,1.799634191802984e-05,0.9120000000000005,0.001790850311746939
0.9360000000000005,7.466411174616063e-05,0.9360000000000005,4.422128759461437e-06,0.9360000000000005,0.001227139312777214,0.9360000000000005,1.389751303279002e-05,0.9360000000000005,0.001017155818983984
0.9600000000000005,3.866033380228967e-05,0.9600000000000005,2.236287554133154e-06,0.9600000000000005,0.0006493621504087506,0.9600000000000005,1.173906066611183e-05,0.9600000000000005,0.0005527991948518847
0.9840000000000005,2.035489666615432e-05,0.9840000000000005,1.166950893602456e-06,0.9840000000000005,0.0003335733040465986,0.9840000000000005,1.05627455993601e-05,0.9840000000000005,0.0002933422395112385
1.008,1.109362776432097e-05,1.008,6.425870676527189e-07,1.008,0.0001681760034342359,1.008,9.885001604853811e-06,1.008,0.000155833512836472
1.032,6.417418054206397e-06,1.032,3.844590557687843e-07,1.032,8.385786389227483e-05,1.032,9.462302611961782e-06,1.032,8.537200183008695e-05
1.056,4.054331792359793e-06,1.056,2.565297655826986e-07,1.056,4.15699800308969e-05,1.056,9.172059973624062e-06,1.056,4.996108364689772e-05
1.080000000000001,2.854760888145655e-06,1.080000000000001,1.923586992766323e-07,1.080000000000001,2.057020429890149e-05,1.080000000000001,8.952476902706965e-06,1.080000000000001,3.233411699992902e-05
1.104000000000001,2.239524921606669e-06,1.104000000000001,1.594738158469689e-07,1.104000000000001,1.020552660499889e-05,1.104000000000001,8.7722764153036e-06,1.104000000000001,2.357322338659262e-05
1.128000000000001,1.91765355419683e-06,1.128000000000001,1.41993503421704e-07,1.128000000000001,5.109687440041318e-06,1.128000000000001,8.615498485489216e-06,1.128000000000001,1.918684464223079e-05
1.152000000000001,1.743242416370581e-06,1.152000000000001,1.321437145930695e-07,1.152000000000001,2.610384936380573e-06,1.152000000000001,8.473876263513305e-06,1.152000000000001,1.694623493084865e-05
1.176000000000001,1.643216737088851e-06,1.176000000000001,1.261144921431737e-07,1.176000000000001,1.386206129698453e-06,1.176000000000001,8.343016436168535e-06,1.176000000000001,1.575558115051853e-05
1.2,1.580997924126144e-06,1.2,1.220346430234429e-07,1.2,7.86686655284642e-07,1.2,8.220485584254485e-06,1.2,1.507924197090125e-05
